
T6884 000:396 SEGGER J-Link V4.80g Log File (0001ms, 0275ms total)
T6884 000:396 DLL Compiled: Feb 13 2014 20:50:02 (0001ms, 0275ms total)
T6884 000:396 Logging started @ 2018-05-18 19:39 (0001ms, 0275ms total)
T6884 000:397 JLINK_SetWarnOutHandler(...) (0000ms, 0275ms total)
T6884 000:397 JLINK_OpenEx(...)
Firmware: J-Link ARM V8 compiled Nov 28 2014 13:44:46
Hardware: V8.00
Feature(s): RDI,FlashDL,FlashBP,JFlash,GDBFULL  returns O.K. (0269ms, 0544ms total)
T6884 000:666 JLINK_SetErrorOutHandler(...) (0000ms, 0544ms total)
T6884 000:666 JLINK_ExecCommand("ProjectFile = "C:\Users\jianwei_zou\AppData\Roaming\feiq\AutoRecv Files\Ä²ÓÀÃ÷(484D7EBF83DE)\3.SN7312_IIC_OLED\JLinkSettings.ini"", ...)  returns 0x00 (0000ms, 0544ms total)
T6884 000:673 JLINK_ExecCommand("Device = Cortex-M0", ...)Device "CORTEX-M0" selected (0 KB flash, 0 KB RAM).  returns 0x00 (0010ms, 0554ms total)
T6884 000:684 JLINK_ExecCommand("DisableConnectionTimeout", ...)  returns 0x01 (0000ms, 0554ms total)
T6884 000:684 JLINK_GetHardwareVersion()  returns 0x13880 (0000ms, 0554ms total)
T6884 000:684 JLINK_GetDLLVersion()  returns 48007 (0000ms, 0554ms total)
T6884 000:684 JLINK_GetFirmwareString(...) (0000ms, 0554ms total)
T6884 000:695 JLINK_GetDLLVersion()  returns 48007 (0000ms, 0554ms total)
T6884 000:695 JLINK_GetCompileDateTime() (0000ms, 0554ms total)
T6884 000:698 JLINK_GetFirmwareString(...) (0000ms, 0554ms total)
T6884 000:699 JLINK_GetHardwareVersion()  returns 0x13880 (0000ms, 0554ms total)
T6884 000:704 JLINK_TIF_Select(JLINKARM_TIF_SWD)  returns 0x00 (0002ms, 0556ms total)
T6884 000:706 JLINK_SetSpeed(5000) (0000ms, 0556ms total)
T6884 000:706 JLINK_GetId() >0x108 TIF>Found SWD-DP with ID 0x0BB11477 >0x0D TIF> >0x21 TIF> >0x0D TIF> >0x28 TIF> >0x0D TIF> >0x28 TIF> >0x0D TIF> >0x21 TIF> >0x0D TIF> >0x28 TIF> >0x0D TIF> >0x21 TIF> >0x0D TIF> >0x21 TIF> >0x0D TIF> >0x21 TIF> >0x0D TIF> >0x21 TIF> >0x0D TIF> >0x28 TIF> >0x0D TIF> >0x28 TIF> >0x0D TIF> >0x21 TIF> >0x0D TIF> >0x28 TIF> >0x0D TIF> >0x28 TIF> >0x0D TIF> >0x28 TIF> >0x0D TIF> >0x21 TIF> >0x0D TIF> >0x21 TIF> >0x0D TIF> >0x28 TIF> >0x0D TIF> >0x21 TIF> >0x0D TIF>
 >0x21 TIF>Found Cortex-M0 r0p0, Little endian. -- CPU_WriteMem(4 bytes @ 0xE0002000) -- CPU_ReadMem(4 bytes @ 0xE000EDF0) -- CPU_ReadMem(4 bytes @ 0xE0002000)FPUnit: 4 code (BP) slots and 0 literal slots -- CPU_ReadMem(4 bytes @ 0xE000EDFC) -- CPU_ReadMem(4 bytes @ 0xE0001000) -- CPU_WriteMem(4 bytes @ 0xE0001000) -- CPU_ReadMem(4 bytes @ 0xE00FF018) >0x0D TIF> >0x21 TIF>  returns 0x0BB11477 (0028ms, 0584ms total)
T6884 000:734 JLINK_GetDLLVersion()  returns 48007 (0000ms, 0584ms total)
T6884 000:734 JLINK_CORE_GetFound()  returns 0x60000FF (0000ms, 0584ms total)
T6884 000:736 JLINK_GetDebugInfo(0x100) -- Value=0xE00FF003  returns 0x00 (0000ms, 0584ms total)
T6884 000:736 JLINK_GetDebugInfo(0x101)  returns 0xFFFFFFFF (0000ms, 0584ms total)
T6884 000:736 JLINK_ReadMem (0xE0041FF0, 0x0010 Bytes, ...) -- CPU is running -- CPU_ReadMem(16 bytes @ 0xE0041FF0) -- Data:  00 00 00 00 00 00 00 00 00 00 00 00 00 00 00 00  returns 0x00 (0001ms, 0585ms total)
T6884 000:737 JLINK_GetDebugInfo(0x102)  returns 0xFFFFFFFF (0000ms, 0585ms total)
T6884 000:737 JLINK_GetDebugInfo(0x103)  returns 0xFFFFFFFF (0000ms, 0585ms total)
T6884 000:737 JLINK_ReadMem (0xE0040FF0, 0x0010 Bytes, ...) -- CPU is running -- CPU_ReadMem(16 bytes @ 0xE0040FF0) -- Data:  00 00 00 00 00 00 00 00 00 00 00 00 00 00 00 00  returns 0x00 (0001ms, 0586ms total)
T6884 000:738 JLINK_GetDebugInfo(0x104)  returns 0xFFFFFFFF (0000ms, 0586ms total)
T6884 000:738 JLINK_GetDebugInfo(0x105)  returns 0xFFFFFFFF (0000ms, 0586ms total)
T6884 000:738 JLINK_GetDebugInfo(0x106)  returns 0xFFFFFFFF (0000ms, 0586ms total)
T6884 000:738 JLINK_GetDebugInfo(0x107)  returns 0xFFFFFFFF (0000ms, 0586ms total)
T6884 000:738 JLINK_GetDebugInfo(0x10C)  returns 0xFFFFFFFF (0000ms, 0586ms total)
T6884 000:738 JLINK_ReadMemU32(0xE000ED00, 0x0001 Items, ...) -- CPU is running -- CPU_ReadMem(4 bytes @ 0xE000ED00) -- Data:  00 C2 0C 41  returns 0x01 (0000ms, 0586ms total)
T6884 000:738 JLINK_SetResetType(JLINKARM_RESET_TYPE_NORMAL)  returns JLINKARM_RESET_TYPE_NORMAL (0000ms, 0586ms total)
T6884 000:738 JLINK_Reset() -- CPU is running -- CPU_WriteMem(4 bytes @ 0xE000EDF0) -- CPU is running -- CPU_WriteMem(4 bytes @ 0xE000EDFC) >0x35 TIF> -- CPU is running -- CPU_WriteMem(4 bytes @ 0xE000ED0C) -- CPU is running -- CPU_ReadMem(4 bytes @ 0xE000EDF0) -- CPU is running -- CPU_ReadMem(4 bytes @ 0xE000EDF0) -- CPU is running -- CPU_WriteMem(4 bytes @ 0xE000EDF0) -- CPU is running -- CPU_WriteMem(4 bytes @ 0xE000EDFC) -- CPU is running -- CPU_ReadMem(4 bytes @ 0xE000EDF0)
 -- CPU_WriteMem(4 bytes @ 0xE0002000) -- CPU_ReadMem(4 bytes @ 0xE000EDFC) -- CPU_ReadMem(4 bytes @ 0xE0001000) -- CPU_WriteMem(4 bytes @ 0xE0001000) (0020ms, 0606ms total)
T6884 000:758 JLINK_Halt()  returns 0x00 (0000ms, 0606ms total)
T6884 000:758 JLINK_IsHalted()  returns TRUE (0000ms, 0606ms total)
T6884 000:758 JLINK_ReadMemU32(0xE000EDF0, 0x0001 Items, ...) -- CPU_ReadMem(4 bytes @ 0xE000EDF0) -- Data:  03 00 03 00  returns 0x01 (0001ms, 0607ms total)
T6884 000:759 JLINK_WriteU32(0xE000EDF0, 0xA05F0003) -- CPU_WriteMem(4 bytes @ 0xE000EDF0)  returns 0x00 (0000ms, 0607ms total)
T6884 000:759 JLINK_WriteU32(0xE000EDFC, 0x01000000) -- CPU_WriteMem(4 bytes @ 0xE000EDFC)  returns 0x00 (0001ms, 0608ms total)
T6884 000:767 JLINK_GetHWStatus(...)  returns 0x00 (0000ms, 0608ms total)
T6884 000:772 JLINK_GetNumBPUnits(Type = 0xFFFFFF00)  returns 0x04 (0000ms, 0608ms total)
T6884 000:772 JLINK_GetNumBPUnits(Type = 0xF0)  returns 0x2000 (0000ms, 0608ms total)
T6884 000:772 JLINK_GetNumWPUnits()  returns 0x02 (0000ms, 0608ms total)
T6884 000:777 JLINK_GetSpeed()  returns 0xFA0 (0000ms, 0608ms total)
T6884 000:780 JLINK_ReadMemU32(0xE000E004, 0x0001 Items, ...) -- CPU_ReadMem(4 bytes @ 0xE000E004) -- Data:  00 00 00 00  returns 0x01 (0000ms, 0608ms total)
T6884 000:786 JLINK_ReadReg(R0)  returns 0xFFFFFFFF (0000ms, 0608ms total)
T6884 000:786 JLINK_ReadReg(R1)  returns 0xFFFFFFFF (0000ms, 0608ms total)
T6884 000:786 JLINK_ReadReg(R2)  returns 0xFFFFFFFF (0000ms, 0608ms total)
T6884 000:786 JLINK_ReadReg(R3)  returns 0xFFFFFFFF (0000ms, 0608ms total)
T6884 000:786 JLINK_ReadReg(R4)  returns 0xFFFFFFFF (0000ms, 0608ms total)
T6884 000:786 JLINK_ReadReg(R5)  returns 0xFFFFFFFF (0000ms, 0608ms total)
T6884 000:786 JLINK_ReadReg(R6)  returns 0xFFFFFFFF (0000ms, 0608ms total)
T6884 000:786 JLINK_ReadReg(R7)  returns 0xFFFFFFFF (0000ms, 0608ms total)
T6884 000:786 JLINK_ReadReg(R8)  returns 0xFFFFFFFF (0000ms, 0608ms total)
T6884 000:786 JLINK_ReadReg(R9)  returns 0xFFFFFFFF (0000ms, 0608ms total)
T6884 000:786 JLINK_ReadReg(R10)  returns 0xFFFFFFFF (0000ms, 0608ms total)
T6884 000:786 JLINK_ReadReg(R11)  returns 0xFFFFFFFF (0000ms, 0608ms total)
T6884 000:786 JLINK_ReadReg(R12)  returns 0xFFFFFFFF (0000ms, 0608ms total)
T6884 000:786 JLINK_ReadReg(R13 (SP))  returns 0x20015718 (0000ms, 0608ms total)
T6884 000:786 JLINK_ReadReg(R14)  returns 0xFFFFFFFF (0000ms, 0608ms total)
T6884 000:786 JLINK_ReadReg(R15 (PC))  returns 0x000000EC (0000ms, 0608ms total)
T6884 000:786 JLINK_ReadReg(XPSR)  returns 0xC1000000 (0000ms, 0608ms total)
T6884 000:786 JLINK_ReadReg(MSP)  returns 0x20015718 (0000ms, 0608ms total)
T6884 000:786 JLINK_ReadReg(PSP)  returns 0xFFFFFFFC (0000ms, 0608ms total)
T6884 000:786 JLINK_ReadReg(CFBP)  returns 0x00000000 (0000ms, 0608ms total)
T6884 000:790 JLINK_WriteMem(0x20029FFC, 0x0004 Bytes, ...) -- Data:  00 00 10 60 -- CPU_WriteMem(4 bytes @ 0x20029FFC)  returns 0x04 (0001ms, 0609ms total)
T6884 000:791 JLINK_Halt()  returns 0x00 (0000ms, 0609ms total)
T6884 000:791 JLINK_IsHalted()  returns TRUE (0000ms, 0609ms total)
T6884 000:793 JLINK_WriteMem(0x20002000, 0x0530 Bytes, ...) -- Data:  00 BE 0A E0 0D 78 2D 06 68 40 08 24 40 00 00 D3 ... -- CPU_WriteMem(1328 bytes @ 0x20002000)  returns 0x530 (0009ms, 0618ms total)
T6884 000:802 JLINK_WriteReg(R0, 0x00000000)  returns 0x00 (0000ms, 0618ms total)
T6884 000:802 JLINK_WriteReg(R1, 0x00B71B00)  returns 0x00 (0000ms, 0618ms total)
T6884 000:802 JLINK_WriteReg(R2, 0x00000001)  returns 0x00 (0000ms, 0618ms total)
T6884 000:802 JLINK_WriteReg(R3, 0x00000000)  returns 0x00 (0000ms, 0618ms total)
T6884 000:802 JLINK_WriteReg(R4, 0x00000000)  returns 0x00 (0000ms, 0618ms total)
T6884 000:802 JLINK_WriteReg(R5, 0x00000000)  returns 0x00 (0000ms, 0618ms total)
T6884 000:802 JLINK_WriteReg(R6, 0x00000000)  returns 0x00 (0000ms, 0618ms total)
T6884 000:802 JLINK_WriteReg(R7, 0x00000000)  returns 0x00 (0000ms, 0618ms total)
T6884 000:802 JLINK_WriteReg(R8, 0x00000000)  returns 0x00 (0000ms, 0618ms total)
T6884 000:802 JLINK_WriteReg(R9, 0x20002524)  returns 0x00 (0000ms, 0618ms total)
T6884 000:802 JLINK_WriteReg(R10, 0x00000000)  returns 0x00 (0000ms, 0618ms total)
T6884 000:802 JLINK_WriteReg(R11, 0x00000000)  returns 0x00 (0000ms, 0618ms total)
T6884 000:802 JLINK_WriteReg(R12, 0x00000000)  returns 0x00 (0000ms, 0618ms total)
T6884 000:802 JLINK_WriteReg(R13 (SP), 0x20006000)  returns 0x00 (0000ms, 0618ms total)
T6884 000:802 JLINK_WriteReg(R14, 0x20002001)  returns 0x00 (0000ms, 0618ms total)
T6884 000:802 JLINK_WriteReg(R15 (PC), 0x20002038)  returns 0x00 (0000ms, 0618ms total)
T6884 000:802 JLINK_WriteReg(XPSR, 0x01000000)  returns 0x00 (0000ms, 0618ms total)
T6884 000:802 JLINK_WriteReg(MSP, 0x20006000)  returns 0x00 (0000ms, 0618ms total)
T6884 000:802 JLINK_WriteReg(PSP, 0x20006000)  returns 0x00 (0000ms, 0618ms total)
T6884 000:802 JLINK_WriteReg(CFBP, 0x00000000)  returns 0x00 (0000ms, 0618ms total)
T6884 000:802 JLINK_SetBPEx(Addr = 0x20002000, Type = 0xFFFFFFF2) -- CPU_ReadMem(4 bytes @ 0x20002000) -- CPU_WriteMem(4 bytes @ 0x20002000) -- CPU_ReadMem(4 bytes @ 0x20002000) -- CPU_WriteMem(4 bytes @ 0x20002000) -- CPU_ReadMem(2 bytes @ 0x20002000)  returns 0x00000001 (0004ms, 0622ms total)
T6884 000:806 JLINK_Go() -- CPU_WriteMem(2 bytes @ 0x20002000) -- CPU_WriteMem(4 bytes @ 0xE0002008) -- CPU_WriteMem(4 bytes @ 0xE000200C) -- CPU_WriteMem(4 bytes @ 0xE0002010) -- CPU_WriteMem(4 bytes @ 0xE0002014) -- CPU_WriteMem(4 bytes @ 0xE0001004) (0006ms, 0628ms total)
T6884 000:812 JLINK_IsHalted()  returns FALSE (0000ms, 0628ms total)
T6884 000:832 JLINK_IsHalted() -- CPU_ReadMem(2 bytes @ 0x20002000)  returns TRUE (0003ms, 0631ms total)
T6884 000:835 JLINK_ReadReg(R15 (PC))  returns 0x20002000 (0000ms, 0628ms total)
T6884 000:835 JLINK_ClrBPEx(BPHandle = 0x00000001)  returns 0x00 (0000ms, 0628ms total)
T6884 000:835 JLINK_ReadReg(R0)  returns 0x00000000 (0000ms, 0628ms total)
T6884 000:835 JLINK_WriteReg(R0, 0x00000000)  returns 0x00 (0000ms, 0628ms total)
T6884 000:835 JLINK_WriteReg(R1, 0x00001000)  returns 0x00 (0000ms, 0628ms total)
T6884 000:835 JLINK_WriteReg(R2, 0x000000FF)  returns 0x00 (0000ms, 0628ms total)
T6884 000:835 JLINK_WriteReg(R3, 0x00000000)  returns 0x00 (0000ms, 0628ms total)
T6884 000:835 JLINK_WriteReg(R4, 0x00000000)  returns 0x00 (0000ms, 0628ms total)
T6884 000:835 JLINK_WriteReg(R5, 0x00000000)  returns 0x00 (0000ms, 0628ms total)
T6884 000:835 JLINK_WriteReg(R6, 0x00000000)  returns 0x00 (0000ms, 0628ms total)
T6884 000:835 JLINK_WriteReg(R7, 0x00000000)  returns 0x00 (0000ms, 0628ms total)
T6884 000:835 JLINK_WriteReg(R8, 0x00000000)  returns 0x00 (0000ms, 0628ms total)
T6884 000:835 JLINK_WriteReg(R9, 0x20002524)  returns 0x00 (0000ms, 0628ms total)
T6884 000:835 JLINK_WriteReg(R10, 0x00000000)  returns 0x00 (0000ms, 0628ms total)
T6884 000:835 JLINK_WriteReg(R11, 0x00000000)  returns 0x00 (0000ms, 0628ms total)
T6884 000:835 JLINK_WriteReg(R12, 0x00000000)  returns 0x00 (0000ms, 0628ms total)
T6884 000:835 JLINK_WriteReg(R13 (SP), 0x20006000)  returns 0x00 (0000ms, 0628ms total)
T6884 000:835 JLINK_WriteReg(R14, 0x20002001)  returns 0x00 (0000ms, 0628ms total)
T6884 000:835 JLINK_WriteReg(R15 (PC), 0x20002086)  returns 0x00 (0000ms, 0628ms total)
T6884 000:836 JLINK_WriteReg(XPSR, 0x01000000)  returns 0x00 (0000ms, 0629ms total)
T6884 000:836 JLINK_WriteReg(MSP, 0x20006000)  returns 0x00 (0000ms, 0629ms total)
T6884 000:836 JLINK_WriteReg(PSP, 0x20006000)  returns 0x00 (0000ms, 0629ms total)
T6884 000:836 JLINK_WriteReg(CFBP, 0x00000000)  returns 0x00 (0000ms, 0629ms total)
T6884 000:836 JLINK_SetBPEx(Addr = 0x20002000, Type = 0xFFFFFFF2)  returns 0x00000002 (0000ms, 0629ms total)
T6884 000:836 JLINK_Go() (0001ms, 0630ms total)
T6884 000:837 JLINK_IsHalted() -- CPU_ReadMem(2 bytes @ 0x20002000)  returns TRUE (0003ms, 0633ms total)
T6884 000:840 JLINK_ReadReg(R15 (PC))  returns 0x20002000 (0000ms, 0630ms total)
T6884 000:840 JLINK_ClrBPEx(BPHandle = 0x00000002)  returns 0x00 (0001ms, 0631ms total)
T6884 000:841 JLINK_ReadReg(R0)  returns 0x00000001 (0000ms, 0631ms total)
T6884 000:841 JLINK_WriteReg(R0, 0x00000000)  returns 0x00 (0000ms, 0631ms total)
T6884 000:841 JLINK_WriteReg(R1, 0x00001000)  returns 0x00 (0000ms, 0631ms total)
T6884 000:841 JLINK_WriteReg(R2, 0x000000FF)  returns 0x00 (0000ms, 0631ms total)
T6884 000:841 JLINK_WriteReg(R3, 0x00000000)  returns 0x00 (0000ms, 0631ms total)
T6884 000:841 JLINK_WriteReg(R4, 0x00000000)  returns 0x00 (0000ms, 0631ms total)
T6884 000:841 JLINK_WriteReg(R5, 0x00000000)  returns 0x00 (0000ms, 0631ms total)
T6884 000:841 JLINK_WriteReg(R6, 0x00000000)  returns 0x00 (0000ms, 0631ms total)
T6884 000:841 JLINK_WriteReg(R7, 0x00000000)  returns 0x00 (0000ms, 0631ms total)
T6884 000:841 JLINK_WriteReg(R8, 0x00000000)  returns 0x00 (0000ms, 0631ms total)
T6884 000:841 JLINK_WriteReg(R9, 0x20002524)  returns 0x00 (0000ms, 0631ms total)
T6884 000:841 JLINK_WriteReg(R10, 0x00000000)  returns 0x00 (0000ms, 0631ms total)
T6884 000:841 JLINK_WriteReg(R11, 0x00000000)  returns 0x00 (0000ms, 0631ms total)
T6884 000:841 JLINK_WriteReg(R12, 0x00000000)  returns 0x00 (0000ms, 0631ms total)
T6884 000:841 JLINK_WriteReg(R13 (SP), 0x20006000)  returns 0x00 (0000ms, 0631ms total)
T6884 000:841 JLINK_WriteReg(R14, 0x20002001)  returns 0x00 (0000ms, 0631ms total)
T6884 000:841 JLINK_WriteReg(R15 (PC), 0x20002058)  returns 0x00 (0000ms, 0631ms total)
T6884 000:841 JLINK_WriteReg(XPSR, 0x01000000)  returns 0x00 (0000ms, 0631ms total)
T6884 000:841 JLINK_WriteReg(MSP, 0x20006000)  returns 0x00 (0000ms, 0631ms total)
T6884 000:841 JLINK_WriteReg(PSP, 0x20006000)  returns 0x00 (0000ms, 0631ms total)
T6884 000:841 JLINK_WriteReg(CFBP, 0x00000000)  returns 0x00 (0000ms, 0631ms total)
T6884 000:841 JLINK_SetBPEx(Addr = 0x20002000, Type = 0xFFFFFFF2)  returns 0x00000003 (0000ms, 0631ms total)
T6884 000:841 JLINK_Go() (0001ms, 0632ms total)
T6884 000:842 JLINK_IsHalted()  returns FALSE (0001ms, 0633ms total)
T6884 000:844 JLINK_IsHalted()  returns FALSE (0000ms, 0632ms total)
T6884 000:845 JLINK_IsHalted()  returns FALSE (0000ms, 0632ms total)
T6884 000:846 JLINK_IsHalted()  returns FALSE (0000ms, 0632ms total)
T6884 000:847 JLINK_IsHalted()  returns FALSE (0000ms, 0632ms total)
T6884 000:848 JLINK_IsHalted()  returns FALSE (0000ms, 0632ms total)
T6884 000:849 JLINK_IsHalted()  returns FALSE (0000ms, 0632ms total)
T6884 000:850 JLINK_IsHalted()  returns FALSE (0000ms, 0632ms total)
T6884 000:851 JLINK_IsHalted()  returns FALSE (0000ms, 0632ms total)
T6884 000:852 JLINK_IsHalted()  returns FALSE (0000ms, 0632ms total)
T6884 000:853 JLINK_IsHalted()  returns FALSE (0000ms, 0632ms total)
T6884 000:854 JLINK_IsHalted()  returns FALSE (0000ms, 0632ms total)
T6884 000:857 JLINK_IsHalted()  returns FALSE (0000ms, 0632ms total)
T6884 000:858 JLINK_IsHalted()  returns FALSE (0000ms, 0632ms total)
T6884 000:860 JLINK_IsHalted()  returns FALSE (0000ms, 0632ms total)
T6884 000:861 JLINK_IsHalted()  returns FALSE (0000ms, 0632ms total)
T6884 000:862 JLINK_IsHalted()  returns FALSE (0000ms, 0632ms total)
T6884 000:863 JLINK_IsHalted()  returns FALSE (0000ms, 0632ms total)
T6884 000:864 JLINK_IsHalted()  returns FALSE (0000ms, 0632ms total)
T6884 000:865 JLINK_IsHalted()  returns FALSE (0000ms, 0632ms total)
T6884 000:866 JLINK_IsHalted()  returns FALSE (0000ms, 0632ms total)
T6884 000:867 JLINK_IsHalted()  returns FALSE (0000ms, 0632ms total)
T6884 000:868 JLINK_IsHalted()  returns FALSE (0000ms, 0632ms total)
T6884 000:869 JLINK_IsHalted()  returns FALSE (0000ms, 0632ms total)
T6884 000:870 JLINK_IsHalted()  returns FALSE (0000ms, 0632ms total)
T6884 000:871 JLINK_IsHalted()  returns FALSE (0000ms, 0632ms total)
T6884 000:872 JLINK_IsHalted()  returns FALSE (0000ms, 0632ms total)
T6884 000:873 JLINK_IsHalted()  returns FALSE (0000ms, 0632ms total)
T6884 000:874 JLINK_IsHalted()  returns FALSE (0000ms, 0632ms total)
T6884 000:875 JLINK_IsHalted()  returns FALSE (0000ms, 0632ms total)
T6884 000:876 JLINK_IsHalted()  returns FALSE (0000ms, 0632ms total)
T6884 000:877 JLINK_IsHalted()  returns FALSE (0000ms, 0632ms total)
T6884 000:878 JLINK_IsHalted()  returns FALSE (0000ms, 0632ms total)
T6884 000:879 JLINK_IsHalted()  returns FALSE (0000ms, 0632ms total)
T6884 000:880 JLINK_IsHalted()  returns FALSE (0000ms, 0632ms total)
T6884 000:881 JLINK_IsHalted()  returns FALSE (0000ms, 0632ms total)
T6884 000:882 JLINK_IsHalted()  returns FALSE (0000ms, 0632ms total)
T6884 000:884 JLINK_IsHalted()  returns FALSE (0000ms, 0632ms total)
T6884 000:885 JLINK_IsHalted()  returns FALSE (0000ms, 0632ms total)
T6884 000:886 JLINK_IsHalted()  returns FALSE (0000ms, 0632ms total)
T6884 000:887 JLINK_IsHalted()  returns FALSE (0000ms, 0632ms total)
T6884 000:888 JLINK_IsHalted() -- CPU_ReadMem(2 bytes @ 0x20002000)  returns TRUE (0003ms, 0635ms total)
T6884 000:891 JLINK_ReadReg(R15 (PC))  returns 0x20002000 (0000ms, 0632ms total)
T6884 000:891 JLINK_ClrBPEx(BPHandle = 0x00000003)  returns 0x00 (0000ms, 0632ms total)
T6884 000:891 JLINK_ReadReg(R0)  returns 0x00000000 (0000ms, 0632ms total)
T6884 000:891 JLINK_WriteReg(R0, 0x00000001)  returns 0x00 (0000ms, 0632ms total)
T6884 000:891 JLINK_WriteReg(R1, 0x00001000)  returns 0x00 (0000ms, 0632ms total)
T6884 000:891 JLINK_WriteReg(R2, 0x000000FF)  returns 0x00 (0000ms, 0632ms total)
T6884 000:891 JLINK_WriteReg(R3, 0x00000000)  returns 0x00 (0000ms, 0632ms total)
T6884 000:891 JLINK_WriteReg(R4, 0x00000000)  returns 0x00 (0000ms, 0632ms total)
T6884 000:891 JLINK_WriteReg(R5, 0x00000000)  returns 0x00 (0000ms, 0632ms total)
T6884 000:891 JLINK_WriteReg(R6, 0x00000000)  returns 0x00 (0000ms, 0632ms total)
T6884 000:891 JLINK_WriteReg(R7, 0x00000000)  returns 0x00 (0000ms, 0632ms total)
T6884 000:891 JLINK_WriteReg(R8, 0x00000000)  returns 0x00 (0000ms, 0632ms total)
T6884 000:891 JLINK_WriteReg(R9, 0x20002524)  returns 0x00 (0000ms, 0632ms total)
T6884 000:891 JLINK_WriteReg(R10, 0x00000000)  returns 0x00 (0000ms, 0632ms total)
T6884 000:891 JLINK_WriteReg(R11, 0x00000000)  returns 0x00 (0000ms, 0632ms total)
T6884 000:891 JLINK_WriteReg(R12, 0x00000000)  returns 0x00 (0000ms, 0632ms total)
T6884 000:891 JLINK_WriteReg(R13 (SP), 0x20006000)  returns 0x00 (0000ms, 0632ms total)
T6884 000:891 JLINK_WriteReg(R14, 0x20002001)  returns 0x00 (0000ms, 0632ms total)
T6884 000:891 JLINK_WriteReg(R15 (PC), 0x20002054)  returns 0x00 (0000ms, 0632ms total)
T6884 000:891 JLINK_WriteReg(XPSR, 0x01000000)  returns 0x00 (0000ms, 0632ms total)
T6884 000:891 JLINK_WriteReg(MSP, 0x20006000)  returns 0x00 (0000ms, 0632ms total)
T6884 000:891 JLINK_WriteReg(PSP, 0x20006000)  returns 0x00 (0000ms, 0632ms total)
T6884 000:891 JLINK_WriteReg(CFBP, 0x00000000)  returns 0x00 (0000ms, 0632ms total)
T6884 000:891 JLINK_SetBPEx(Addr = 0x20002000, Type = 0xFFFFFFF2)  returns 0x00000004 (0000ms, 0632ms total)
T6884 000:891 JLINK_Go() (0002ms, 0634ms total)
T6884 000:893 JLINK_IsHalted() -- CPU_ReadMem(2 bytes @ 0x20002000)  returns TRUE (0003ms, 0637ms total)
T6884 000:896 JLINK_ReadReg(R15 (PC))  returns 0x20002000 (0000ms, 0634ms total)
T6884 000:896 JLINK_ClrBPEx(BPHandle = 0x00000004)  returns 0x00 (0000ms, 0634ms total)
T6884 000:896 JLINK_ReadReg(R0)  returns 0x00000000 (0000ms, 0634ms total)
T6884 000:897 JLINK_WriteMem(0x20002000, 0x0494 Bytes, ...) -- Data:  00 BE 0A E0 0D 78 2D 06 68 40 08 24 40 00 00 D3 ... -- CPU_WriteMem(1172 bytes @ 0x20002000)  returns 0x494 (0008ms, 0642ms total)
T6884 000:905 JLINK_WriteReg(R0, 0x60000000)  returns 0x00 (0000ms, 0642ms total)
T6884 000:905 JLINK_WriteReg(R1, 0x00B71B00)  returns 0x00 (0000ms, 0642ms total)
T6884 000:905 JLINK_WriteReg(R2, 0x00000001)  returns 0x00 (0000ms, 0642ms total)
T6884 000:905 JLINK_WriteReg(R3, 0x00000000)  returns 0x00 (0000ms, 0642ms total)
T6884 000:905 JLINK_WriteReg(R4, 0x00000000)  returns 0x00 (0000ms, 0642ms total)
T6884 000:905 JLINK_WriteReg(R5, 0x00000000)  returns 0x00 (0000ms, 0642ms total)
T6884 000:905 JLINK_WriteReg(R6, 0x00000000)  returns 0x00 (0000ms, 0642ms total)
T6884 000:905 JLINK_WriteReg(R7, 0x00000000)  returns 0x00 (0000ms, 0642ms total)
T6884 000:905 JLINK_WriteReg(R8, 0x00000000)  returns 0x00 (0000ms, 0642ms total)
T6884 000:905 JLINK_WriteReg(R9, 0x20002488)  returns 0x00 (0000ms, 0642ms total)
T6884 000:905 JLINK_WriteReg(R10, 0x00000000)  returns 0x00 (0000ms, 0642ms total)
T6884 000:905 JLINK_WriteReg(R11, 0x00000000)  returns 0x00 (0000ms, 0642ms total)
T6884 000:905 JLINK_WriteReg(R12, 0x00000000)  returns 0x00 (0000ms, 0642ms total)
T6884 000:905 JLINK_WriteReg(R13 (SP), 0x20006000)  returns 0x00 (0000ms, 0642ms total)
T6884 000:905 JLINK_WriteReg(R14, 0x20002001)  returns 0x00 (0000ms, 0642ms total)
T6884 000:905 JLINK_WriteReg(R15 (PC), 0x20002030)  returns 0x00 (0000ms, 0642ms total)
T6884 000:905 JLINK_WriteReg(XPSR, 0x01000000)  returns 0x00 (0000ms, 0642ms total)
T6884 000:905 JLINK_WriteReg(MSP, 0x20006000)  returns 0x00 (0000ms, 0642ms total)
T6884 000:905 JLINK_WriteReg(PSP, 0x20006000)  returns 0x00 (0000ms, 0642ms total)
T6884 000:905 JLINK_WriteReg(CFBP, 0x00000000)  returns 0x00 (0000ms, 0642ms total)
T6884 000:905 JLINK_SetBPEx(Addr = 0x20002000, Type = 0xFFFFFFF2) -- CPU_ReadMem(4 bytes @ 0x20002000) -- CPU_WriteMem(4 bytes @ 0x20002000) -- CPU_ReadMem(4 bytes @ 0x20002000) -- CPU_WriteMem(4 bytes @ 0x20002000) -- CPU_ReadMem(2 bytes @ 0x20002000)  returns 0x00000005 (0003ms, 0645ms total)
T6884 000:908 JLINK_Go() -- CPU_WriteMem(2 bytes @ 0x20002000) (0003ms, 0648ms total)
T6884 000:911 JLINK_IsHalted()  returns FALSE (0000ms, 0648ms total)
T6884 000:915 JLINK_IsHalted() -- CPU_ReadMem(2 bytes @ 0x20002000)  returns TRUE (0003ms, 0651ms total)
T6884 000:918 JLINK_ReadReg(R15 (PC))  returns 0x20002000 (0000ms, 0648ms total)
T6884 000:918 JLINK_ClrBPEx(BPHandle = 0x00000005)  returns 0x00 (0000ms, 0648ms total)
T6884 000:918 JLINK_ReadReg(R0)  returns 0x00000000 (0000ms, 0648ms total)
T6884 000:918 JLINK_WriteReg(R0, 0x60002000)  returns 0x00 (0000ms, 0648ms total)
T6884 000:918 JLINK_WriteReg(R1, 0x00001000)  returns 0x00 (0000ms, 0648ms total)
T6884 000:918 JLINK_WriteReg(R2, 0x000000FF)  returns 0x00 (0000ms, 0648ms total)
T6884 000:918 JLINK_WriteReg(R3, 0x00000000)  returns 0x00 (0000ms, 0648ms total)
T6884 000:918 JLINK_WriteReg(R4, 0x00000000)  returns 0x00 (0000ms, 0648ms total)
T6884 000:918 JLINK_WriteReg(R5, 0x00000000)  returns 0x00 (0000ms, 0648ms total)
T6884 000:918 JLINK_WriteReg(R6, 0x00000000)  returns 0x00 (0000ms, 0648ms total)
T6884 000:918 JLINK_WriteReg(R7, 0x00000000)  returns 0x00 (0000ms, 0648ms total)
T6884 000:919 JLINK_WriteReg(R8, 0x00000000)  returns 0x00 (0000ms, 0648ms total)
T6884 000:919 JLINK_WriteReg(R9, 0x20002488)  returns 0x00 (0000ms, 0648ms total)
T6884 000:919 JLINK_WriteReg(R10, 0x00000000)  returns 0x00 (0000ms, 0648ms total)
T6884 000:919 JLINK_WriteReg(R11, 0x00000000)  returns 0x00 (0000ms, 0648ms total)
T6884 000:919 JLINK_WriteReg(R12, 0x00000000)  returns 0x00 (0000ms, 0648ms total)
T6884 000:919 JLINK_WriteReg(R13 (SP), 0x20006000)  returns 0x00 (0000ms, 0648ms total)
T6884 000:919 JLINK_WriteReg(R14, 0x20002001)  returns 0x00 (0000ms, 0648ms total)
T6884 000:919 JLINK_WriteReg(R15 (PC), 0x20002064)  returns 0x00 (0000ms, 0648ms total)
T6884 000:919 JLINK_WriteReg(XPSR, 0x01000000)  returns 0x00 (0000ms, 0648ms total)
T6884 000:919 JLINK_WriteReg(MSP, 0x20006000)  returns 0x00 (0000ms, 0648ms total)
T6884 000:919 JLINK_WriteReg(PSP, 0x20006000)  returns 0x00 (0000ms, 0648ms total)
T6884 000:919 JLINK_WriteReg(CFBP, 0x00000000)  returns 0x00 (0000ms, 0648ms total)
T6884 000:919 JLINK_SetBPEx(Addr = 0x20002000, Type = 0xFFFFFFF2)  returns 0x00000006 (0000ms, 0648ms total)
T6884 000:919 JLINK_Go() (0002ms, 0650ms total)
T6884 000:921 JLINK_IsHalted() -- CPU_ReadMem(2 bytes @ 0x20002000)  returns TRUE (0003ms, 0653ms total)
T6884 000:924 JLINK_ReadReg(R15 (PC))  returns 0x20002000 (0000ms, 0650ms total)
T6884 000:924 JLINK_ClrBPEx(BPHandle = 0x00000006)  returns 0x00 (0000ms, 0650ms total)
T6884 000:924 JLINK_ReadReg(R0)  returns 0x00000001 (0000ms, 0650ms total)
T6884 000:924 JLINK_WriteReg(R0, 0x60002000)  returns 0x00 (0000ms, 0650ms total)
T6884 000:924 JLINK_WriteReg(R1, 0x00001000)  returns 0x00 (0000ms, 0650ms total)
T6884 000:924 JLINK_WriteReg(R2, 0x000000FF)  returns 0x00 (0000ms, 0650ms total)
T6884 000:924 JLINK_WriteReg(R3, 0x00000000)  returns 0x00 (0000ms, 0650ms total)
T6884 000:924 JLINK_WriteReg(R4, 0x00000000)  returns 0x00 (0000ms, 0650ms total)
T6884 000:924 JLINK_WriteReg(R5, 0x00000000)  returns 0x00 (0000ms, 0650ms total)
T6884 000:924 JLINK_WriteReg(R6, 0x00000000)  returns 0x00 (0000ms, 0650ms total)
T6884 000:924 JLINK_WriteReg(R7, 0x00000000)  returns 0x00 (0000ms, 0650ms total)
T6884 000:924 JLINK_WriteReg(R8, 0x00000000)  returns 0x00 (0000ms, 0650ms total)
T6884 000:924 JLINK_WriteReg(R9, 0x20002488)  returns 0x00 (0000ms, 0650ms total)
T6884 000:924 JLINK_WriteReg(R10, 0x00000000)  returns 0x00 (0000ms, 0650ms total)
T6884 000:924 JLINK_WriteReg(R11, 0x00000000)  returns 0x00 (0000ms, 0650ms total)
T6884 000:924 JLINK_WriteReg(R12, 0x00000000)  returns 0x00 (0000ms, 0650ms total)
T6884 000:924 JLINK_WriteReg(R13 (SP), 0x20006000)  returns 0x00 (0000ms, 0650ms total)
T6884 000:924 JLINK_WriteReg(R14, 0x20002001)  returns 0x00 (0000ms, 0650ms total)
T6884 000:924 JLINK_WriteReg(R15 (PC), 0x20002048)  returns 0x00 (0000ms, 0650ms total)
T6884 000:924 JLINK_WriteReg(XPSR, 0x01000000)  returns 0x00 (0000ms, 0650ms total)
T6884 000:924 JLINK_WriteReg(MSP, 0x20006000)  returns 0x00 (0000ms, 0650ms total)
T6884 000:924 JLINK_WriteReg(PSP, 0x20006000)  returns 0x00 (0000ms, 0650ms total)
T6884 000:924 JLINK_WriteReg(CFBP, 0x00000000)  returns 0x00 (0000ms, 0650ms total)
T6884 000:924 JLINK_SetBPEx(Addr = 0x20002000, Type = 0xFFFFFFF2)  returns 0x00000007 (0000ms, 0650ms total)
T6884 000:924 JLINK_Go() (0002ms, 0652ms total)
T6884 000:926 JLINK_IsHalted()  returns FALSE (0000ms, 0652ms total)
T6884 000:929 JLINK_IsHalted()  returns FALSE (0000ms, 0652ms total)
T6884 000:930 JLINK_IsHalted()  returns FALSE (0000ms, 0652ms total)
T6884 000:931 JLINK_IsHalted()  returns FALSE (0000ms, 0652ms total)
T6884 000:932 JLINK_IsHalted()  returns FALSE (0000ms, 0652ms total)
T6884 000:933 JLINK_IsHalted()  returns FALSE (0000ms, 0652ms total)
T6884 000:934 JLINK_IsHalted()  returns FALSE (0000ms, 0652ms total)
T6884 000:935 JLINK_IsHalted()  returns FALSE (0000ms, 0652ms total)
T6884 000:936 JLINK_IsHalted()  returns FALSE (0000ms, 0652ms total)
T6884 000:937 JLINK_IsHalted()  returns FALSE (0000ms, 0652ms total)
T6884 000:938 JLINK_IsHalted()  returns FALSE (0000ms, 0652ms total)
T6884 000:939 JLINK_IsHalted()  returns FALSE (0000ms, 0652ms total)
T6884 000:940 JLINK_IsHalted()  returns FALSE (0000ms, 0652ms total)
T6884 000:941 JLINK_IsHalted()  returns FALSE (0000ms, 0652ms total)
T6884 000:942 JLINK_IsHalted()  returns FALSE (0000ms, 0652ms total)
T6884 000:943 JLINK_IsHalted()  returns FALSE (0000ms, 0652ms total)
T6884 000:944 JLINK_IsHalted()  returns FALSE (0000ms, 0652ms total)
T6884 000:945 JLINK_IsHalted()  returns FALSE (0000ms, 0652ms total)
T6884 000:946 JLINK_IsHalted()  returns FALSE (0000ms, 0652ms total)
T6884 000:947 JLINK_IsHalted()  returns FALSE (0000ms, 0652ms total)
T6884 000:948 JLINK_IsHalted()  returns FALSE (0000ms, 0652ms total)
T6884 000:949 JLINK_IsHalted()  returns FALSE (0000ms, 0652ms total)
T6884 000:950 JLINK_IsHalted()  returns FALSE (0000ms, 0652ms total)
T6884 000:951 JLINK_IsHalted()  returns FALSE (0000ms, 0652ms total)
T6884 000:952 JLINK_IsHalted()  returns FALSE (0000ms, 0652ms total)
T6884 000:953 JLINK_IsHalted()  returns FALSE (0000ms, 0652ms total)
T6884 000:954 JLINK_IsHalted()  returns FALSE (0000ms, 0652ms total)
T6884 000:955 JLINK_IsHalted()  returns FALSE (0000ms, 0652ms total)
T6884 000:956 JLINK_IsHalted()  returns FALSE (0000ms, 0652ms total)
T6884 000:957 JLINK_IsHalted()  returns FALSE (0000ms, 0652ms total)
T6884 000:958 JLINK_IsHalted()  returns FALSE (0000ms, 0652ms total)
T6884 000:959 JLINK_IsHalted()  returns FALSE (0000ms, 0652ms total)
T6884 000:960 JLINK_IsHalted()  returns FALSE (0000ms, 0652ms total)
T6884 000:961 JLINK_IsHalted()  returns FALSE (0000ms, 0652ms total)
T6884 000:962 JLINK_IsHalted()  returns FALSE (0000ms, 0652ms total)
T6884 000:963 JLINK_IsHalted()  returns FALSE (0000ms, 0652ms total)
T6884 000:964 JLINK_IsHalted()  returns FALSE (0000ms, 0652ms total)
T6884 000:965 JLINK_IsHalted()  returns FALSE (0000ms, 0652ms total)
T6884 000:966 JLINK_IsHalted()  returns FALSE (0000ms, 0652ms total)
T6884 000:967 JLINK_IsHalted()  returns FALSE (0000ms, 0652ms total)
T6884 000:968 JLINK_IsHalted()  returns FALSE (0000ms, 0652ms total)
T6884 000:969 JLINK_IsHalted() -- CPU_ReadMem(2 bytes @ 0x20002000)  returns TRUE (0005ms, 0657ms total)
T6884 000:974 JLINK_ReadReg(R15 (PC))  returns 0x20002000 (0000ms, 0652ms total)
T6884 000:974 JLINK_ClrBPEx(BPHandle = 0x00000007)  returns 0x00 (0000ms, 0652ms total)
T6884 000:974 JLINK_ReadReg(R0)  returns 0x00000000 (0000ms, 0652ms total)
T6884 000:974 JLINK_WriteReg(R0, 0x00000001)  returns 0x00 (0000ms, 0652ms total)
T6884 000:974 JLINK_WriteReg(R1, 0x00001000)  returns 0x00 (0000ms, 0652ms total)
T6884 000:975 JLINK_WriteReg(R2, 0x000000FF)  returns 0x00 (0000ms, 0653ms total)
T6884 000:975 JLINK_WriteReg(R3, 0x00000000)  returns 0x00 (0000ms, 0653ms total)
T6884 000:975 JLINK_WriteReg(R4, 0x00000000)  returns 0x00 (0000ms, 0653ms total)
T6884 000:975 JLINK_WriteReg(R5, 0x00000000)  returns 0x00 (0000ms, 0653ms total)
T6884 000:975 JLINK_WriteReg(R6, 0x00000000)  returns 0x00 (0000ms, 0653ms total)
T6884 000:975 JLINK_WriteReg(R7, 0x00000000)  returns 0x00 (0000ms, 0653ms total)
T6884 000:975 JLINK_WriteReg(R8, 0x00000000)  returns 0x00 (0000ms, 0653ms total)
T6884 000:975 JLINK_WriteReg(R9, 0x20002488)  returns 0x00 (0000ms, 0653ms total)
T6884 000:975 JLINK_WriteReg(R10, 0x00000000)  returns 0x00 (0000ms, 0653ms total)
T6884 000:975 JLINK_WriteReg(R11, 0x00000000)  returns 0x00 (0000ms, 0653ms total)
T6884 000:975 JLINK_WriteReg(R12, 0x00000000)  returns 0x00 (0000ms, 0653ms total)
T6884 000:975 JLINK_WriteReg(R13 (SP), 0x20006000)  returns 0x00 (0000ms, 0653ms total)
T6884 000:975 JLINK_WriteReg(R14, 0x20002001)  returns 0x00 (0000ms, 0653ms total)
T6884 000:975 JLINK_WriteReg(R15 (PC), 0x20002044)  returns 0x00 (0000ms, 0653ms total)
T6884 000:975 JLINK_WriteReg(XPSR, 0x01000000)  returns 0x00 (0000ms, 0653ms total)
T6884 000:975 JLINK_WriteReg(MSP, 0x20006000)  returns 0x00 (0000ms, 0653ms total)
T6884 000:975 JLINK_WriteReg(PSP, 0x20006000)  returns 0x00 (0000ms, 0653ms total)
T6884 000:975 JLINK_WriteReg(CFBP, 0x00000000)  returns 0x00 (0000ms, 0653ms total)
T6884 000:975 JLINK_SetBPEx(Addr = 0x20002000, Type = 0xFFFFFFF2)  returns 0x00000008 (0000ms, 0653ms total)
T6884 000:975 JLINK_Go() (0002ms, 0655ms total)
T6884 000:977 JLINK_IsHalted() -- CPU_ReadMem(2 bytes @ 0x20002000)  returns TRUE (0003ms, 0658ms total)
T6884 000:980 JLINK_ReadReg(R15 (PC))  returns 0x20002000 (0000ms, 0655ms total)
T6884 000:980 JLINK_ClrBPEx(BPHandle = 0x00000008)  returns 0x00 (0000ms, 0655ms total)
T6884 000:980 JLINK_ReadReg(R0)  returns 0x00000000 (0000ms, 0655ms total)
T6884 001:038 JLINK_WriteMem(0x20002000, 0x0530 Bytes, ...) -- Data:  00 BE 0A E0 0D 78 2D 06 68 40 08 24 40 00 00 D3 ... -- CPU_WriteMem(1328 bytes @ 0x20002000)  returns 0x530 (0009ms, 0664ms total)
T6884 001:047 JLINK_WriteReg(R0, 0x00000000)  returns 0x00 (0000ms, 0664ms total)
T6884 001:047 JLINK_WriteReg(R1, 0x00B71B00)  returns 0x00 (0000ms, 0664ms total)
T6884 001:047 JLINK_WriteReg(R2, 0x00000002)  returns 0x00 (0000ms, 0664ms total)
T6884 001:047 JLINK_WriteReg(R3, 0x00000000)  returns 0x00 (0001ms, 0665ms total)
T6884 001:048 JLINK_WriteReg(R4, 0x00000000)  returns 0x00 (0000ms, 0665ms total)
T6884 001:048 JLINK_WriteReg(R5, 0x00000000)  returns 0x00 (0000ms, 0665ms total)
T6884 001:048 JLINK_WriteReg(R6, 0x00000000)  returns 0x00 (0000ms, 0665ms total)
T6884 001:048 JLINK_WriteReg(R7, 0x00000000)  returns 0x00 (0000ms, 0665ms total)
T6884 001:048 JLINK_WriteReg(R8, 0x00000000)  returns 0x00 (0000ms, 0665ms total)
T6884 001:048 JLINK_WriteReg(R9, 0x20002524)  returns 0x00 (0000ms, 0665ms total)
T6884 001:048 JLINK_WriteReg(R10, 0x00000000)  returns 0x00 (0000ms, 0665ms total)
T6884 001:048 JLINK_WriteReg(R11, 0x00000000)  returns 0x00 (0000ms, 0665ms total)
T6884 001:048 JLINK_WriteReg(R12, 0x00000000)  returns 0x00 (0000ms, 0665ms total)
T6884 001:048 JLINK_WriteReg(R13 (SP), 0x20006000)  returns 0x00 (0000ms, 0665ms total)
T6884 001:048 JLINK_WriteReg(R14, 0x20002001)  returns 0x00 (0000ms, 0665ms total)
T6884 001:048 JLINK_WriteReg(R15 (PC), 0x20002038)  returns 0x00 (0000ms, 0665ms total)
T6884 001:048 JLINK_WriteReg(XPSR, 0x01000000)  returns 0x00 (0000ms, 0665ms total)
T6884 001:048 JLINK_WriteReg(MSP, 0x20006000)  returns 0x00 (0000ms, 0665ms total)
T6884 001:048 JLINK_WriteReg(PSP, 0x20006000)  returns 0x00 (0000ms, 0665ms total)
T6884 001:048 JLINK_WriteReg(CFBP, 0x00000000)  returns 0x00 (0000ms, 0665ms total)
T6884 001:048 JLINK_SetBPEx(Addr = 0x20002000, Type = 0xFFFFFFF2) -- CPU_ReadMem(4 bytes @ 0x20002000) -- CPU_WriteMem(4 bytes @ 0x20002000) -- CPU_ReadMem(4 bytes @ 0x20002000) -- CPU_WriteMem(4 bytes @ 0x20002000) -- CPU_ReadMem(2 bytes @ 0x20002000)  returns 0x00000009 (0003ms, 0668ms total)
T6884 001:051 JLINK_Go() -- CPU_WriteMem(2 bytes @ 0x20002000) (0003ms, 0671ms total)
T6884 001:054 JLINK_IsHalted() -- CPU_ReadMem(2 bytes @ 0x20002000)  returns TRUE (0003ms, 0674ms total)
T6884 001:057 JLINK_ReadReg(R15 (PC))  returns 0x20002000 (0000ms, 0671ms total)
T6884 001:057 JLINK_ClrBPEx(BPHandle = 0x00000009)  returns 0x00 (0000ms, 0671ms total)
T6884 001:057 JLINK_ReadReg(R0)  returns 0x00000000 (0000ms, 0671ms total)
T6884 001:057 JLINK_WriteMem(0x20002630, 0x0100 Bytes, ...) -- Data:  18 57 01 20 ED 00 00 00 F1 00 00 00 F3 00 00 00 ... -- CPU_WriteMem(256 bytes @ 0x20002630)  returns 0x100 (0003ms, 0674ms total)
T6884 001:060 JLINK_WriteReg(R0, 0x00000000)  returns 0x00 (0000ms, 0674ms total)
T6884 001:060 JLINK_WriteReg(R1, 0x00000100)  returns 0x00 (0000ms, 0674ms total)
T6884 001:060 JLINK_WriteReg(R2, 0x20002630)  returns 0x00 (0000ms, 0674ms total)
T6884 001:060 JLINK_WriteReg(R3, 0x00000000)  returns 0x00 (0000ms, 0674ms total)
T6884 001:060 JLINK_WriteReg(R4, 0x00000000)  returns 0x00 (0000ms, 0674ms total)
T6884 001:060 JLINK_WriteReg(R5, 0x00000000)  returns 0x00 (0000ms, 0674ms total)
T6884 001:060 JLINK_WriteReg(R6, 0x00000000)  returns 0x00 (0000ms, 0674ms total)
T6884 001:060 JLINK_WriteReg(R7, 0x00000000)  returns 0x00 (0000ms, 0674ms total)
T6884 001:060 JLINK_WriteReg(R8, 0x00000000)  returns 0x00 (0000ms, 0674ms total)
T6884 001:060 JLINK_WriteReg(R9, 0x20002524)  returns 0x00 (0000ms, 0674ms total)
T6884 001:060 JLINK_WriteReg(R10, 0x00000000)  returns 0x00 (0000ms, 0674ms total)
T6884 001:060 JLINK_WriteReg(R11, 0x00000000)  returns 0x00 (0000ms, 0674ms total)
T6884 001:060 JLINK_WriteReg(R12, 0x00000000)  returns 0x00 (0000ms, 0674ms total)
T6884 001:060 JLINK_WriteReg(R13 (SP), 0x20006000)  returns 0x00 (0000ms, 0674ms total)
T6884 001:060 JLINK_WriteReg(R14, 0x20002001)  returns 0x00 (0000ms, 0674ms total)
T6884 001:060 JLINK_WriteReg(R15 (PC), 0x2000208A)  returns 0x00 (0000ms, 0674ms total)
T6884 001:060 JLINK_WriteReg(XPSR, 0x01000000)  returns 0x00 (0000ms, 0674ms total)
T6884 001:060 JLINK_WriteReg(MSP, 0x20006000)  returns 0x00 (0000ms, 0674ms total)
T6884 001:060 JLINK_WriteReg(PSP, 0x20006000)  returns 0x00 (0000ms, 0674ms total)
T6884 001:060 JLINK_WriteReg(CFBP, 0x00000000)  returns 0x00 (0000ms, 0674ms total)
T6884 001:060 JLINK_SetBPEx(Addr = 0x20002000, Type = 0xFFFFFFF2)  returns 0x0000000A (0000ms, 0674ms total)
T6884 001:060 JLINK_Go() (0002ms, 0676ms total)
T6884 001:062 JLINK_IsHalted()  returns FALSE (0000ms, 0676ms total)
T6884 001:073 JLINK_IsHalted() -- CPU_ReadMem(2 bytes @ 0x20002000)  returns TRUE (0003ms, 0679ms total)
T6884 001:076 JLINK_ReadReg(R15 (PC))  returns 0x20002000 (0000ms, 0676ms total)
T6884 001:076 JLINK_ClrBPEx(BPHandle = 0x0000000A)  returns 0x00 (0000ms, 0676ms total)
T6884 001:076 JLINK_ReadReg(R0)  returns 0x00000000 (0000ms, 0676ms total)
T6884 001:078 JLINK_WriteMem(0x20002630, 0x0100 Bytes, ...) -- Data:  08 B5 00 24 00 F0 DC FA 00 F0 E0 FA 00 28 01 D0 ... -- CPU_WriteMem(256 bytes @ 0x20002630)  returns 0x100 (0003ms, 0679ms total)
T6884 001:081 JLINK_WriteReg(R0, 0x00000100)  returns 0x00 (0000ms, 0679ms total)
T6884 001:081 JLINK_WriteReg(R1, 0x00000100)  returns 0x00 (0000ms, 0679ms total)
T6884 001:081 JLINK_WriteReg(R2, 0x20002630)  returns 0x00 (0000ms, 0679ms total)
T6884 001:081 JLINK_WriteReg(R3, 0x00000000)  returns 0x00 (0000ms, 0679ms total)
T6884 001:081 JLINK_WriteReg(R4, 0x00000000)  returns 0x00 (0000ms, 0679ms total)
T6884 001:081 JLINK_WriteReg(R5, 0x00000000)  returns 0x00 (0000ms, 0679ms total)
T6884 001:081 JLINK_WriteReg(R6, 0x00000000)  returns 0x00 (0000ms, 0679ms total)
T6884 001:081 JLINK_WriteReg(R7, 0x00000000)  returns 0x00 (0000ms, 0679ms total)
T6884 001:081 JLINK_WriteReg(R8, 0x00000000)  returns 0x00 (0000ms, 0679ms total)
T6884 001:081 JLINK_WriteReg(R9, 0x20002524)  returns 0x00 (0000ms, 0679ms total)
T6884 001:081 JLINK_WriteReg(R10, 0x00000000)  returns 0x00 (0000ms, 0679ms total)
T6884 001:081 JLINK_WriteReg(R11, 0x00000000)  returns 0x00 (0000ms, 0679ms total)
T6884 001:081 JLINK_WriteReg(R12, 0x00000000)  returns 0x00 (0000ms, 0679ms total)
T6884 001:081 JLINK_WriteReg(R13 (SP), 0x20006000)  returns 0x00 (0000ms, 0679ms total)
T6884 001:081 JLINK_WriteReg(R14, 0x20002001)  returns 0x00 (0000ms, 0679ms total)
T6884 001:081 JLINK_WriteReg(R15 (PC), 0x2000208A)  returns 0x00 (0000ms, 0679ms total)
T6884 001:081 JLINK_WriteReg(XPSR, 0x01000000)  returns 0x00 (0000ms, 0679ms total)
T6884 001:081 JLINK_WriteReg(MSP, 0x20006000)  returns 0x00 (0000ms, 0679ms total)
T6884 001:081 JLINK_WriteReg(PSP, 0x20006000)  returns 0x00 (0000ms, 0679ms total)
T6884 001:081 JLINK_WriteReg(CFBP, 0x00000000)  returns 0x00 (0000ms, 0679ms total)
T6884 001:081 JLINK_SetBPEx(Addr = 0x20002000, Type = 0xFFFFFFF2)  returns 0x0000000B (0000ms, 0679ms total)
T6884 001:081 JLINK_Go() (0002ms, 0681ms total)
T6884 001:083 JLINK_IsHalted()  returns FALSE (0001ms, 0682ms total)
T6884 001:087 JLINK_IsHalted() -- CPU_ReadMem(2 bytes @ 0x20002000)  returns TRUE (0003ms, 0684ms total)
T6884 001:090 JLINK_ReadReg(R15 (PC))  returns 0x20002000 (0000ms, 0681ms total)
T6884 001:090 JLINK_ClrBPEx(BPHandle = 0x0000000B)  returns 0x00 (0000ms, 0681ms total)
T6884 001:090 JLINK_ReadReg(R0)  returns 0x00000000 (0000ms, 0681ms total)
T6884 001:091 JLINK_WriteMem(0x20002630, 0x0100 Bytes, ...) -- Data:  59 43 0C 31 CA B2 61 1F 59 43 00 90 C8 B2 04 23 ... -- CPU_WriteMem(256 bytes @ 0x20002630)  returns 0x100 (0002ms, 0683ms total)
T6884 001:093 JLINK_WriteReg(R0, 0x00000200)  returns 0x00 (0000ms, 0683ms total)
T6884 001:093 JLINK_WriteReg(R1, 0x00000100)  returns 0x00 (0000ms, 0683ms total)
T6884 001:093 JLINK_WriteReg(R2, 0x20002630)  returns 0x00 (0000ms, 0683ms total)
T6884 001:093 JLINK_WriteReg(R3, 0x00000000)  returns 0x00 (0000ms, 0683ms total)
T6884 001:093 JLINK_WriteReg(R4, 0x00000000)  returns 0x00 (0000ms, 0683ms total)
T6884 001:093 JLINK_WriteReg(R5, 0x00000000)  returns 0x00 (0000ms, 0683ms total)
T6884 001:093 JLINK_WriteReg(R6, 0x00000000)  returns 0x00 (0000ms, 0683ms total)
T6884 001:093 JLINK_WriteReg(R7, 0x00000000)  returns 0x00 (0000ms, 0683ms total)
T6884 001:093 JLINK_WriteReg(R8, 0x00000000)  returns 0x00 (0000ms, 0683ms total)
T6884 001:093 JLINK_WriteReg(R9, 0x20002524)  returns 0x00 (0000ms, 0683ms total)
T6884 001:093 JLINK_WriteReg(R10, 0x00000000)  returns 0x00 (0000ms, 0683ms total)
T6884 001:093 JLINK_WriteReg(R11, 0x00000000)  returns 0x00 (0000ms, 0683ms total)
T6884 001:093 JLINK_WriteReg(R12, 0x00000000)  returns 0x00 (0000ms, 0683ms total)
T6884 001:093 JLINK_WriteReg(R13 (SP), 0x20006000)  returns 0x00 (0000ms, 0683ms total)
T6884 001:093 JLINK_WriteReg(R14, 0x20002001)  returns 0x00 (0000ms, 0683ms total)
T6884 001:093 JLINK_WriteReg(R15 (PC), 0x2000208A)  returns 0x00 (0000ms, 0683ms total)
T6884 001:093 JLINK_WriteReg(XPSR, 0x01000000)  returns 0x00 (0000ms, 0683ms total)
T6884 001:093 JLINK_WriteReg(MSP, 0x20006000)  returns 0x00 (0000ms, 0683ms total)
T6884 001:093 JLINK_WriteReg(PSP, 0x20006000)  returns 0x00 (0001ms, 0684ms total)
T6884 001:094 JLINK_WriteReg(CFBP, 0x00000000)  returns 0x00 (0000ms, 0684ms total)
T6884 001:094 JLINK_SetBPEx(Addr = 0x20002000, Type = 0xFFFFFFF2)  returns 0x0000000C (0000ms, 0684ms total)
T6884 001:094 JLINK_Go() (0002ms, 0686ms total)
T6884 001:096 JLINK_IsHalted()  returns FALSE (0000ms, 0686ms total)
T6884 001:097 JLINK_IsHalted() -- CPU_ReadMem(2 bytes @ 0x20002000)  returns TRUE (0003ms, 0689ms total)
T6884 001:100 JLINK_ReadReg(R15 (PC))  returns 0x20002000 (0000ms, 0686ms total)
T6884 001:100 JLINK_ClrBPEx(BPHandle = 0x0000000C)  returns 0x00 (0000ms, 0686ms total)
T6884 001:100 JLINK_ReadReg(R0)  returns 0x00000000 (0000ms, 0686ms total)
T6884 001:101 JLINK_WriteMem(0x20002630, 0x0100 Bytes, ...) -- Data:  E1 17 49 0F 09 18 C9 10 C9 00 61 1A 05 D1 E1 17 ... -- CPU_WriteMem(256 bytes @ 0x20002630)  returns 0x100 (0002ms, 0688ms total)
T6884 001:103 JLINK_WriteReg(R0, 0x00000300)  returns 0x00 (0000ms, 0688ms total)
T6884 001:103 JLINK_WriteReg(R1, 0x00000100)  returns 0x00 (0000ms, 0688ms total)
T6884 001:103 JLINK_WriteReg(R2, 0x20002630)  returns 0x00 (0000ms, 0688ms total)
T6884 001:103 JLINK_WriteReg(R3, 0x00000000)  returns 0x00 (0000ms, 0688ms total)
T6884 001:103 JLINK_WriteReg(R4, 0x00000000)  returns 0x00 (0000ms, 0688ms total)
T6884 001:103 JLINK_WriteReg(R5, 0x00000000)  returns 0x00 (0000ms, 0688ms total)
T6884 001:103 JLINK_WriteReg(R6, 0x00000000)  returns 0x00 (0000ms, 0688ms total)
T6884 001:103 JLINK_WriteReg(R7, 0x00000000)  returns 0x00 (0000ms, 0688ms total)
T6884 001:103 JLINK_WriteReg(R8, 0x00000000)  returns 0x00 (0000ms, 0688ms total)
T6884 001:103 JLINK_WriteReg(R9, 0x20002524)  returns 0x00 (0000ms, 0688ms total)
T6884 001:103 JLINK_WriteReg(R10, 0x00000000)  returns 0x00 (0000ms, 0688ms total)
T6884 001:103 JLINK_WriteReg(R11, 0x00000000)  returns 0x00 (0000ms, 0688ms total)
T6884 001:103 JLINK_WriteReg(R12, 0x00000000)  returns 0x00 (0000ms, 0688ms total)
T6884 001:103 JLINK_WriteReg(R13 (SP), 0x20006000)  returns 0x00 (0000ms, 0688ms total)
T6884 001:103 JLINK_WriteReg(R14, 0x20002001)  returns 0x00 (0000ms, 0688ms total)
T6884 001:103 JLINK_WriteReg(R15 (PC), 0x2000208A)  returns 0x00 (0000ms, 0688ms total)
T6884 001:103 JLINK_WriteReg(XPSR, 0x01000000)  returns 0x00 (0000ms, 0688ms total)
T6884 001:103 JLINK_WriteReg(MSP, 0x20006000)  returns 0x00 (0000ms, 0688ms total)
T6884 001:103 JLINK_WriteReg(PSP, 0x20006000)  returns 0x00 (0000ms, 0688ms total)
T6884 001:103 JLINK_WriteReg(CFBP, 0x00000000)  returns 0x00 (0000ms, 0688ms total)
T6884 001:103 JLINK_SetBPEx(Addr = 0x20002000, Type = 0xFFFFFFF2)  returns 0x0000000D (0000ms, 0688ms total)
T6884 001:103 JLINK_Go() (0002ms, 0690ms total)
T6884 001:105 JLINK_IsHalted()  returns FALSE (0001ms, 0691ms total)
T6884 001:109 JLINK_IsHalted() -- CPU_ReadMem(2 bytes @ 0x20002000)  returns TRUE (0003ms, 0693ms total)
T6884 001:112 JLINK_ReadReg(R15 (PC))  returns 0x20002000 (0000ms, 0690ms total)
T6884 001:112 JLINK_ClrBPEx(BPHandle = 0x0000000D)  returns 0x00 (0000ms, 0690ms total)
T6884 001:112 JLINK_ReadReg(R0)  returns 0x00000000 (0000ms, 0690ms total)
T6884 001:113 JLINK_WriteMem(0x20002630, 0x0100 Bytes, ...) -- Data:  A6 20 FF F7 15 FF AF 20 FF F7 12 FF 00 20 FF F7 ... -- CPU_WriteMem(256 bytes @ 0x20002630)  returns 0x100 (0002ms, 0692ms total)
T6884 001:115 JLINK_WriteReg(R0, 0x00000400)  returns 0x00 (0000ms, 0692ms total)
T6884 001:115 JLINK_WriteReg(R1, 0x00000100)  returns 0x00 (0000ms, 0692ms total)
T6884 001:115 JLINK_WriteReg(R2, 0x20002630)  returns 0x00 (0000ms, 0692ms total)
T6884 001:115 JLINK_WriteReg(R3, 0x00000000)  returns 0x00 (0000ms, 0692ms total)
T6884 001:115 JLINK_WriteReg(R4, 0x00000000)  returns 0x00 (0000ms, 0692ms total)
T6884 001:115 JLINK_WriteReg(R5, 0x00000000)  returns 0x00 (0000ms, 0692ms total)
T6884 001:115 JLINK_WriteReg(R6, 0x00000000)  returns 0x00 (0000ms, 0692ms total)
T6884 001:115 JLINK_WriteReg(R7, 0x00000000)  returns 0x00 (0000ms, 0692ms total)
T6884 001:115 JLINK_WriteReg(R8, 0x00000000)  returns 0x00 (0000ms, 0692ms total)
T6884 001:115 JLINK_WriteReg(R9, 0x20002524)  returns 0x00 (0000ms, 0692ms total)
T6884 001:115 JLINK_WriteReg(R10, 0x00000000)  returns 0x00 (0000ms, 0692ms total)
T6884 001:115 JLINK_WriteReg(R11, 0x00000000)  returns 0x00 (0000ms, 0692ms total)
T6884 001:115 JLINK_WriteReg(R12, 0x00000000)  returns 0x00 (0000ms, 0692ms total)
T6884 001:115 JLINK_WriteReg(R13 (SP), 0x20006000)  returns 0x00 (0000ms, 0692ms total)
T6884 001:115 JLINK_WriteReg(R14, 0x20002001)  returns 0x00 (0000ms, 0692ms total)
T6884 001:115 JLINK_WriteReg(R15 (PC), 0x2000208A)  returns 0x00 (0000ms, 0692ms total)
T6884 001:115 JLINK_WriteReg(XPSR, 0x01000000)  returns 0x00 (0000ms, 0692ms total)
T6884 001:115 JLINK_WriteReg(MSP, 0x20006000)  returns 0x00 (0000ms, 0692ms total)
T6884 001:115 JLINK_WriteReg(PSP, 0x20006000)  returns 0x00 (0000ms, 0692ms total)
T6884 001:115 JLINK_WriteReg(CFBP, 0x00000000)  returns 0x00 (0001ms, 0693ms total)
T6884 001:116 JLINK_SetBPEx(Addr = 0x20002000, Type = 0xFFFFFFF2)  returns 0x0000000E (0000ms, 0693ms total)
T6884 001:116 JLINK_Go() (0001ms, 0694ms total)
T6884 001:117 JLINK_IsHalted()  returns FALSE (0001ms, 0695ms total)
T6884 001:119 JLINK_IsHalted() -- CPU_ReadMem(2 bytes @ 0x20002000)  returns TRUE (0003ms, 0697ms total)
T6884 001:122 JLINK_ReadReg(R15 (PC))  returns 0x20002000 (0000ms, 0694ms total)
T6884 001:122 JLINK_ClrBPEx(BPHandle = 0x0000000E)  returns 0x00 (0000ms, 0694ms total)
T6884 001:122 JLINK_ReadReg(R0)  returns 0x00000000 (0000ms, 0694ms total)
T6884 001:123 JLINK_WriteMem(0x20002630, 0x0100 Bytes, ...) -- Data:  4D 49 08 60 05 20 00 F0 F3 F8 4B 48 00 68 C0 07 ... -- CPU_WriteMem(256 bytes @ 0x20002630)  returns 0x100 (0002ms, 0696ms total)
T6884 001:125 JLINK_WriteReg(R0, 0x00000500)  returns 0x00 (0000ms, 0696ms total)
T6884 001:125 JLINK_WriteReg(R1, 0x00000100)  returns 0x00 (0000ms, 0696ms total)
T6884 001:125 JLINK_WriteReg(R2, 0x20002630)  returns 0x00 (0000ms, 0696ms total)
T6884 001:125 JLINK_WriteReg(R3, 0x00000000)  returns 0x00 (0000ms, 0696ms total)
T6884 001:125 JLINK_WriteReg(R4, 0x00000000)  returns 0x00 (0000ms, 0696ms total)
T6884 001:125 JLINK_WriteReg(R5, 0x00000000)  returns 0x00 (0000ms, 0696ms total)
T6884 001:125 JLINK_WriteReg(R6, 0x00000000)  returns 0x00 (0000ms, 0696ms total)
T6884 001:125 JLINK_WriteReg(R7, 0x00000000)  returns 0x00 (0000ms, 0696ms total)
T6884 001:125 JLINK_WriteReg(R8, 0x00000000)  returns 0x00 (0000ms, 0696ms total)
T6884 001:125 JLINK_WriteReg(R9, 0x20002524)  returns 0x00 (0000ms, 0696ms total)
T6884 001:125 JLINK_WriteReg(R10, 0x00000000)  returns 0x00 (0000ms, 0696ms total)
T6884 001:125 JLINK_WriteReg(R11, 0x00000000)  returns 0x00 (0000ms, 0696ms total)
T6884 001:125 JLINK_WriteReg(R12, 0x00000000)  returns 0x00 (0000ms, 0696ms total)
T6884 001:125 JLINK_WriteReg(R13 (SP), 0x20006000)  returns 0x00 (0000ms, 0696ms total)
T6884 001:125 JLINK_WriteReg(R14, 0x20002001)  returns 0x00 (0000ms, 0696ms total)
T6884 001:125 JLINK_WriteReg(R15 (PC), 0x2000208A)  returns 0x00 (0000ms, 0696ms total)
T6884 001:125 JLINK_WriteReg(XPSR, 0x01000000)  returns 0x00 (0000ms, 0696ms total)
T6884 001:125 JLINK_WriteReg(MSP, 0x20006000)  returns 0x00 (0000ms, 0696ms total)
T6884 001:125 JLINK_WriteReg(PSP, 0x20006000)  returns 0x00 (0000ms, 0696ms total)
T6884 001:126 JLINK_WriteReg(CFBP, 0x00000000)  returns 0x00 (0000ms, 0697ms total)
T6884 001:126 JLINK_SetBPEx(Addr = 0x20002000, Type = 0xFFFFFFF2)  returns 0x0000000F (0000ms, 0697ms total)
T6884 001:126 JLINK_Go() (0001ms, 0698ms total)
T6884 001:127 JLINK_IsHalted()  returns FALSE (0001ms, 0699ms total)
T6884 001:129 JLINK_IsHalted() -- CPU_ReadMem(2 bytes @ 0x20002000)  returns TRUE (0003ms, 0701ms total)
T6884 001:132 JLINK_ReadReg(R15 (PC))  returns 0x20002000 (0000ms, 0698ms total)
T6884 001:132 JLINK_ClrBPEx(BPHandle = 0x0000000F)  returns 0x00 (0000ms, 0698ms total)
T6884 001:132 JLINK_ReadReg(R0)  returns 0x00000000 (0000ms, 0698ms total)
T6884 001:133 JLINK_WriteMem(0x20002630, 0x0100 Bytes, ...) -- Data:  00 F0 76 F8 60 06 04 0E 0B 48 00 68 C0 07 C0 0F ... -- CPU_WriteMem(256 bytes @ 0x20002630)  returns 0x100 (0002ms, 0700ms total)
T6884 001:135 JLINK_WriteReg(R0, 0x00000600)  returns 0x00 (0000ms, 0700ms total)
T6884 001:135 JLINK_WriteReg(R1, 0x00000100)  returns 0x00 (0000ms, 0700ms total)
T6884 001:135 JLINK_WriteReg(R2, 0x20002630)  returns 0x00 (0000ms, 0700ms total)
T6884 001:135 JLINK_WriteReg(R3, 0x00000000)  returns 0x00 (0000ms, 0700ms total)
T6884 001:135 JLINK_WriteReg(R4, 0x00000000)  returns 0x00 (0000ms, 0700ms total)
T6884 001:135 JLINK_WriteReg(R5, 0x00000000)  returns 0x00 (0000ms, 0700ms total)
T6884 001:135 JLINK_WriteReg(R6, 0x00000000)  returns 0x00 (0000ms, 0700ms total)
